
T13C4 000:799 SEGGER J-Link V4.15n (beta) Log File (0001ms, 0797ms total)
T13C4 000:799 DLL Compiled: Jun 18 2010 19:55:09 (0001ms, 0797ms total)
T13C4 000:799 Logging started @ 2013-06-06 23:28 (0001ms, 0797ms total)
T13C4 000:800 JLINK_SetWarnOutHandler(...) (0000ms, 0798ms total)
T13C4 000:800 JLINK_OpenEx(...)
Firmware: J-Link ARM-OB STM32 compiled Dec 15 2010 11:30:03
Hardware: V7.00
S/N: 20090928
Feature(s): RDI,FlashDL,FlashBP,JFlash,GDBFull  returns O.K. (0130ms, 0798ms total)
T13C4 000:930 JLINK_SetErrorOutHandler(...) (0000ms, 0928ms total)
T13C4 000:930 JLINK_ExecCommand("ProjectFile = "F:\GitHub\RTT\bsp\lpc176x\JLinkSettings.ini"", ...)  returns 0x00 (0000ms, 0928ms total)
T13C4 000:931 JLINK_ExecCommand("DisableConnectionTimeout", ...)  returns 0x00 (0000ms, 0928ms total)
T13C4 000:933 JLINK_TIF_Select(JLINKARM_TIF_JTAG)  returns 0x00 (0000ms, 0928ms total)
T13C4 000:935 JLINK_SetSpeed(2000) (0001ms, 0928ms total)
T13C4 000:936 JLINK_GetHardwareVersion()  returns 0x11170 (0000ms, 0929ms total)
T13C4 000:936 JLINK_GetDLLVersion()  returns 41514 (0000ms, 0929ms total)
T13C4 000:936 JLINK_GetFirmwareString(...) (0000ms, 0929ms total)
T13C4 000:939 JLINK_GetDLLVersion()  returns 41514 (0000ms, 0929ms total)
T13C4 000:939 JLINK_GetCompileDateTime() (0000ms, 0929ms total)
T13C4 000:940 JLINK_GetFirmwareString(...) (0000ms, 0929ms total)
T13C4 000:941 JLINK_GetHardwareVersion()  returns 0x11170 (0000ms, 0929ms total)
T13C4 000:948 JLINK_Reset() >0x2F8 JTAG>TotalIRLen = 4, IRPrint = 0x01 >0x30 JTAG> >0x210 JTAG> >0x100 JTAG> >0xC8 JTAG> >0x170 JTAG> >0x30 JTAG> >0x100 JTAG> >0xC8 JTAG> >0x2C8 JTAG> >0x2C8 JTAG> >0x170 JTAG> >0x170 JTAG>Found Cortex-M3 r2p0, Little endian. >0xC8 JTAG> >0x218 JTAG> >0x170 JTAG> >0x170 JTAG>TPIU fitted. >0x170 JTAG>ETM fitted. >0x170 JTAG>  FPUnit: 6 code (BP) slots and 2 literal slots >0x170 JTAG> >0x220 JTAG> >0x218 JTAG> >0x250 JTAG> >0x170 JTAG> >0x170 JTAG> >0x218 JTAG> >0x218 JTAG>
 >0x170 JTAG> >0x170 JTAG> >0x1598 JTAG> >0x218 JTAG> >0x170 JTAG> >0x1598 JTAG> >0x170 JTAG> >0x1D0 JTAG> >0x1D0 JTAG> >0x1D0 JTAG> >0x1D0 JTAG> >0x1D0 JTAG> >0x1D0 JTAG> >0x1D0 JTAG> >0x1D0 JTAG> >0x1D0 JTAG> >0x1D0 JTAG> >0x1D0 JTAG> >0x1D0 JTAG> >0x1D0 JTAG> >0x1D0 JTAG> >0x1D0 JTAG> >0x1D0 JTAG> >0x1D0 JTAG> >0x1D0 JTAG> >0x1D0 JTAG> >0x1D0 JTAG> >0x1D0 JTAG> >0x218 JTAG> >0x218 JTAG> >0x170 JTAG> >0x1598 JTAG> >0x1D0 JTAG> >0x1D0 JTAG> >0x1D8 JTAG> >0x1D8 JTAG> (0245ms, 0929ms total)
T13C4 001:194 JLINK_GetIdData(...) ScanLen=4 NumDevices=1 aId[0]=0x4BA00477 aIrRead[0]=0 aScanLen[0]=0 aScanRead[0]=0 (0001ms, 1174ms total)
T13C4 001:195 JLINK_JTAG_GetDeviceID(DeviceIndex = 0)  returns 0x4BA00477 (0000ms, 1175ms total)
T13C4 001:195 JLINK_JTAG_GetDeviceInfo(DeviceIndex = 0)  returns 0x00 (0000ms, 1175ms total)
T13C4 001:195 JLINK_GetDebugInfo(0x100) -- Value=0xE00FF003  returns 0x00 (0000ms, 1175ms total)
T13C4 001:198 JLINK_ReadMem (0xE00FF000, 0x0018 Bytes, ...) >0x2F8 JTAG> -- Data:  03 F0 F0 FF 03 20 F0 FF 03 30 F0 FF 03 10 F0 FF ...  returns 0x00 (0002ms, 1175ms total)
T13C4 001:200 JLINK_ReadMemU32(0xE000ED00, 0x0001 Items, ...) >0x1D8 JTAG> -- Data:  30 C2 2F 41  returns 0x01 (0002ms, 1177ms total)
T13C4 001:202 JLINK_Halt()  returns 0x00 (0000ms, 1179ms total)
T13C4 001:202 JLINK_IsHalted()  returns TRUE (0000ms, 1179ms total)
T13C4 001:202 JLINK_ReadMemU32(0xE000EDF0, 0x0001 Items, ...) >0x1D8 JTAG> -- Data:  03 00 03 00  returns 0x01 (0002ms, 1179ms total)
T13C4 001:204 JLINK_WriteU32(0xE000EDF0, 0xA05F0003) >0x1D0 JTAG>  returns 0x00 (0002ms, 1181ms total)
T13C4 001:206 JLINK_WriteU32(0xE000EDFC, 0x01000000) >0x1D0 JTAG>  returns 0x00 (0001ms, 1183ms total)
T13C4 001:207 JLINK_ReadMemU32(0xE0002000, 0x0001 Items, ...) >0x1D8 JTAG> -- Data:  60 02 00 00  returns 0x01 (0002ms, 1184ms total)
T13C4 001:209 JLINK_ReadMemU32(0xE0001000, 0x0001 Items, ...) >0x1D8 JTAG> -- Data:  01 00 00 40  returns 0x01 (0002ms, 1186ms total)
T13C4 001:222 JLINK_ExecCommand("Device = LPC1768", ...)
                JLINK_ExecCommand("map ram 0x10000000 - 0x10007FFF", ...)  returns 0x00 (0001ms, 0000ms total)
                JLINK_AddMirrorAreaEx(Addr = 0x00000000, Size = 0x00000000) (0000ms, 0001ms total)
                returns 0x00 (0002ms, 1188ms total)
T13C4 001:224 JLINK_GetHWStatus(...)  returns 0x00 (0001ms, 1190ms total)
T13C4 001:233 JLINK_GetNumBPUnits(Type = 0xFFFFFF00) >0x2F8 JTAG>TotalIRLen = 4, IRPrint = 0x01 >0x30 JTAG> >0x210 JTAG> >0x100 JTAG> >0xC8 JTAG> >0x170 JTAG> >0x30 JTAG> >0x100 JTAG> >0xC8 JTAG> >0x2C8 JTAG> >0x2C8 JTAG> >0x170 JTAG> >0x170 JTAG>Found Cortex-M3 r2p0, Little endian. >0xC8 JTAG> >0x218 JTAG> >0x170 JTAG> >0x170 JTAG>TPIU fitted. >0x170 JTAG>ETM fitted. >0x170 JTAG>  FPUnit: 6 code (BP) slots and 2 literal slots >0x170 JTAG>  returns 0x06 (0042ms, 1191ms total)
T13C4 001:275 JLINK_GetNumBPUnits(Type = 0xF0)  returns 0x800 (0000ms, 1233ms total)
T13C4 001:275 JLINK_GetNumWPUnits()  returns 0x04 (0000ms, 1233ms total)
T13C4 001:280 JLINK_GetSpeed()  returns 0x7D0 (0000ms, 1233ms total)
T13C4 001:283 JLINK_ReadMemU32(0xE000E004, 0x0001 Items, ...) >0x1E0 JTAG> -- Data:  01 00 00 00  returns 0x01 (0002ms, 1233ms total)
T13C4 001:285 JLINK_WriteMem(0xE0001000, 0x001C Bytes, ...) -- Data:  01 00 00 00 00 00 00 00 00 00 00 00 00 00 00 00 ... >0x2F0 JTAG>  returns 0x1C (0002ms, 1235ms total)
T13C4 001:287 JLINK_ReadMem (0xE0001000, 0x001C Bytes, ...) >0x338 JTAG> -- Data:  01 00 00 40 00 00 00 00 00 00 00 00 00 00 00 00 ...  returns 0x00 (0002ms, 1237ms total)
T13C4 001:289 JLINK_Halt()  returns 0x00 (0000ms, 1239ms total)
T13C4 001:289 JLINK_IsHalted()  returns TRUE (0000ms, 1239ms total)
T13C4 001:290 JLINK_WriteMem(0x10000000, 0x017C Bytes, ...) -- Data:  00 BE 0A E0 0D 78 2D 06 68 40 08 24 40 00 00 D3 ... >0x1318 JTAG>  returns 0x17C (0009ms, 1239ms total)
T13C4 001:299 JLINK_WriteReg(R0, 0x00000000)  returns 0x00 (0000ms, 1248ms total)
T13C4 001:299 JLINK_WriteReg(R1, 0x00B71B00)  returns 0x00 (0000ms, 1248ms total)
T13C4 001:299 JLINK_WriteReg(R2, 0x00000001)  returns 0x00 (0000ms, 1248ms total)
T13C4 001:299 JLINK_WriteReg(R3, 0x00000000)  returns 0x00 (0000ms, 1248ms total)
T13C4 001:299 JLINK_WriteReg(R4, 0x00000000)  returns 0x00 (0000ms, 1248ms total)
T13C4 001:299 JLINK_WriteReg(R5, 0x00000000)  returns 0x00 (0000ms, 1248ms total)
T13C4 001:299 JLINK_WriteReg(R6, 0x00000000)  returns 0x00 (0000ms, 1248ms total)
T13C4 001:299 JLINK_WriteReg(R7, 0x00000000)  returns 0x00 (0000ms, 1248ms total)
T13C4 001:299 JLINK_WriteReg(R8, 0x00000000)  returns 0x00 (0000ms, 1248ms total)
T13C4 001:299 JLINK_WriteReg(R9, 0x10000174)  returns 0x00 (0000ms, 1248ms total)
T13C4 001:299 JLINK_WriteReg(R10, 0x00000000)  returns 0x00 (0000ms, 1248ms total)
T13C4 001:299 JLINK_WriteReg(R11, 0x00000000)  returns 0x00 (0000ms, 1248ms total)
T13C4 001:299 JLINK_WriteReg(R12, 0x00000000)  returns 0x00 (0000ms, 1248ms total)
T13C4 001:299 JLINK_WriteReg(R13, 0x10000800)  returns 0x00 (0000ms, 1248ms total)
T13C4 001:299 JLINK_WriteReg(R14, 0x10000001)  returns 0x00 (0000ms, 1248ms total)
T13C4 001:299 JLINK_WriteReg(R15, 0x10000046)  returns 0x00 (0000ms, 1248ms total)
T13C4 001:299 JLINK_WriteReg(XPSR, 0x01000000)  returns 0x00 (0000ms, 1248ms total)
T13C4 001:299 JLINK_WriteReg(MSP, 0x10000800)  returns 0x00 (0000ms, 1248ms total)
T13C4 001:299 JLINK_WriteReg(PSP, 0x10000800)  returns 0x00 (0000ms, 1248ms total)
T13C4 001:299 JLINK_WriteReg(CFBP, 0x00000000)  returns 0x00 (0000ms, 1248ms total)
T13C4 001:299 JLINK_SetBPEx(Addr = 0x10000000, Type = 0xFFFFFFF2)  returns 0x00000001 (0000ms, 1248ms total)
T13C4 001:299 JLINK_Go() >0x1D0 JTAG> >0x1D0 JTAG> >0x1D0 JTAG> >0x1D0 JTAG> >0x1D0 JTAG> >0x1D0 JTAG> >0x1D0 JTAG> >0x2C8 JTAG> >0x1E8 JTAG> >0x1E8 JTAG> >0x1E8 JTAG> >0x1E8 JTAG> >0x1E8 JTAG> >0x1E8 JTAG> >0x1E8 JTAG> >0x1E8 JTAG> >0x1E8 JTAG> >0x1E8 JTAG> >0x218 JTAG> >0x218 JTAG> (0037ms, 1248ms total)
T13C4 001:336 JLINK_IsHalted() >0x170 JTAG> >0x1598 JTAG>  returns TRUE (0011ms, 1285ms total)
T13C4 001:347 JLINK_ReadReg(R15)  returns 0x10000000 (0000ms, 1285ms total)
T13C4 001:347 JLINK_ClrBPEx(BPHandle = 0x00000001)  returns 0x00 (0000ms, 1285ms total)
T13C4 001:347 JLINK_ReadReg(R0)  returns 0x00000000 (0000ms, 1285ms total)
T13C4 001:347 JLINK_WriteReg(R0, 0x00000000)  returns 0x00 (0000ms, 1285ms total)
T13C4 001:347 JLINK_WriteReg(R1, 0x00001000)  returns 0x00 (0000ms, 1285ms total)
T13C4 001:347 JLINK_WriteReg(R2, 0x000000FF)  returns 0x00 (0000ms, 1285ms total)
T13C4 001:347 JLINK_WriteReg(R3, 0x00000000)  returns 0x00 (0000ms, 1285ms total)
T13C4 001:347 JLINK_WriteReg(R4, 0x00000000)  returns 0x00 (0000ms, 1285ms total)
T13C4 001:347 JLINK_WriteReg(R5, 0x00000000)  returns 0x00 (0000ms, 1285ms total)
T13C4 001:347 JLINK_WriteReg(R6, 0x00000000)  returns 0x00 (0000ms, 1285ms total)
T13C4 001:347 JLINK_WriteReg(R7, 0x00000000)  returns 0x00 (0000ms, 1285ms total)
T13C4 001:348 JLINK_WriteReg(R8, 0x00000000)  returns 0x00 (0000ms, 1286ms total)
T13C4 001:348 JLINK_WriteReg(R9, 0x10000174)  returns 0x00 (0000ms, 1286ms total)
T13C4 001:348 JLINK_WriteReg(R10, 0x00000000)  returns 0x00 (0000ms, 1286ms total)
T13C4 001:348 JLINK_WriteReg(R11, 0x00000000)  returns 0x00 (0000ms, 1286ms total)
T13C4 001:348 JLINK_WriteReg(R12, 0x00000000)  returns 0x00 (0000ms, 1286ms total)
T13C4 001:348 JLINK_WriteReg(R13, 0x10000800)  returns 0x00 (0000ms, 1286ms total)
T13C4 001:348 JLINK_WriteReg(R14, 0x10000001)  returns 0x00 (0000ms, 1286ms total)
T13C4 001:348 JLINK_WriteReg(R15, 0x10000020)  returns 0x00 (0000ms, 1286ms total)
T13C4 001:348 JLINK_WriteReg(XPSR, 0x01000000)  returns 0x00 (0000ms, 1286ms total)
T13C4 001:348 JLINK_WriteReg(MSP, 0x10000800)  returns 0x00 (0000ms, 1286ms total)
T13C4 001:348 JLINK_WriteReg(PSP, 0x10000800)  returns 0x00 (0000ms, 1286ms total)
T13C4 001:348 JLINK_WriteReg(CFBP, 0x00000000)  returns 0x00 (0000ms, 1286ms total)
T13C4 001:348 JLINK_SetBPEx(Addr = 0x10000000, Type = 0xFFFFFFF2)  returns 0x00000002 (0000ms, 1286ms total)
T13C4 001:348 JLINK_Go() >0x1D0 JTAG> >0x1D0 JTAG> >0x1D0 JTAG> >0x1D0 JTAG> >0x1D0 JTAG> >0x1D0 JTAG> >0x2C8 JTAG> >0x1E8 JTAG> >0x1E8 JTAG> >0x1E8 JTAG> >0x218 JTAG> >0x218 JTAG> (0022ms, 1286ms total)
T13C4 001:370 JLINK_IsHalted() >0x170 JTAG> >0x1598 JTAG>  returns TRUE (0011ms, 1308ms total)
T13C4 001:381 JLINK_ReadReg(R15)  returns 0x10000000 (0000ms, 1308ms total)
T13C4 001:381 JLINK_ClrBPEx(BPHandle = 0x00000002)  returns 0x00 (0000ms, 1308ms total)
T13C4 001:381 JLINK_ReadReg(R0)  returns 0x00000001 (0000ms, 1308ms total)
T13C4 001:381 JLINK_WriteReg(R0, 0x00000000)  returns 0x00 (0000ms, 1308ms total)
T13C4 001:381 JLINK_WriteReg(R1, 0x00001000)  returns 0x00 (0000ms, 1308ms total)
T13C4 001:381 JLINK_WriteReg(R2, 0x000000FF)  returns 0x00 (0000ms, 1308ms total)
T13C4 001:381 JLINK_WriteReg(R3, 0x00000000)  returns 0x00 (0000ms, 1308ms total)
T13C4 001:381 JLINK_WriteReg(R4, 0x00000000)  returns 0x00 (0000ms, 1308ms total)
T13C4 001:381 JLINK_WriteReg(R5, 0x00000000)  returns 0x00 (0000ms, 1308ms total)
T13C4 001:381 JLINK_WriteReg(R6, 0x00000000)  returns 0x00 (0000ms, 1308ms total)
T13C4 001:381 JLINK_WriteReg(R7, 0x00000000)  returns 0x00 (0000ms, 1308ms total)
T13C4 001:381 JLINK_WriteReg(R8, 0x00000000)  returns 0x00 (0000ms, 1308ms total)
T13C4 001:381 JLINK_WriteReg(R9, 0x10000174)  returns 0x00 (0000ms, 1308ms total)
T13C4 001:381 JLINK_WriteReg(R10, 0x00000000)  returns 0x00 (0000ms, 1308ms total)
T13C4 001:381 JLINK_WriteReg(R11, 0x00000000)  returns 0x00 (0000ms, 1308ms total)
T13C4 001:381 JLINK_WriteReg(R12, 0x00000000)  returns 0x00 (0000ms, 1308ms total)
T13C4 001:381 JLINK_WriteReg(R13, 0x10000800)  returns 0x00 (0000ms, 1308ms total)
T13C4 001:381 JLINK_WriteReg(R14, 0x10000001)  returns 0x00 (0000ms, 1308ms total)
T13C4 001:381 JLINK_WriteReg(R15, 0x100000AE)  returns 0x00 (0000ms, 1308ms total)
T13C4 001:381 JLINK_WriteReg(XPSR, 0x01000000)  returns 0x00 (0000ms, 1308ms total)
T13C4 001:381 JLINK_WriteReg(MSP, 0x10000800)  returns 0x00 (0000ms, 1308ms total)
T13C4 001:381 JLINK_WriteReg(PSP, 0x10000800)  returns 0x00 (0000ms, 1308ms total)
T13C4 001:381 JLINK_WriteReg(CFBP, 0x00000000)  returns 0x00 (0000ms, 1308ms total)
T13C4 001:381 JLINK_SetBPEx(Addr = 0x10000000, Type = 0xFFFFFFF2)  returns 0x00000003 (0000ms, 1308ms total)
T13C4 001:381 JLINK_Go() >0x1D0 JTAG> >0x1D0 JTAG> >0x1D0 JTAG> >0x1D0 JTAG> >0x1D0 JTAG> >0x1D0 JTAG> >0x2C8 JTAG> >0x1E8 JTAG> >0x1E8 JTAG> >0x1E8 JTAG> >0x218 JTAG> >0x218 JTAG> (0023ms, 1308ms total)
T13C4 001:404 JLINK_IsHalted() >0x170 JTAG>  returns FALSE (0001ms, 1331ms total)
T13C4 001:455 JLINK_IsHalted() >0x170 JTAG>  returns FALSE (0001ms, 1331ms total)
T13C4 001:506 JLINK_IsHalted() >0x170 JTAG> >0x1598 JTAG>  returns TRUE (0011ms, 1331ms total)
T13C4 001:517 JLINK_ReadReg(R15)  returns 0x10000000 (0000ms, 1331ms total)
T13C4 001:517 JLINK_ClrBPEx(BPHandle = 0x00000003)  returns 0x00 (0000ms, 1331ms total)
T13C4 001:517 JLINK_ReadReg(R0)  returns 0x00000000 (0000ms, 1331ms total)
T13C4 001:518 JLINK_WriteReg(R0, 0x00001000)  returns 0x00 (0000ms, 1331ms total)
T13C4 001:518 JLINK_WriteReg(R1, 0x00001000)  returns 0x00 (0000ms, 1331ms total)
T13C4 001:518 JLINK_WriteReg(R2, 0x000000FF)  returns 0x00 (0000ms, 1331ms total)
T13C4 001:518 JLINK_WriteReg(R3, 0x00000000)  returns 0x00 (0000ms, 1331ms total)
T13C4 001:518 JLINK_WriteReg(R4, 0x00000000)  returns 0x00 (0000ms, 1331ms total)
T13C4 001:518 JLINK_WriteReg(R5, 0x00000000)  returns 0x00 (0000ms, 1331ms total)
T13C4 001:518 JLINK_WriteReg(R6, 0x00000000)  returns 0x00 (0000ms, 1331ms total)
T13C4 001:518 JLINK_WriteReg(R7, 0x00000000)  returns 0x00 (0000ms, 1331ms total)
T13C4 001:518 JLINK_WriteReg(R8, 0x00000000)  returns 0x00 (0000ms, 1331ms total)
T13C4 001:519 JLINK_WriteReg(R9, 0x10000174)  returns 0x00 (0000ms, 1331ms total)
T13C4 001:519 JLINK_WriteReg(R10, 0x00000000)  returns 0x00 (0000ms, 1331ms total)
T13C4 001:519 JLINK_WriteReg(R11, 0x00000000)  returns 0x00 (0000ms, 1331ms total)
T13C4 001:519 JLINK_WriteReg(R12, 0x00000000)  returns 0x00 (0000ms, 1331ms total)
T13C4 001:519 JLINK_WriteReg(R13, 0x10000800)  returns 0x00 (0000ms, 1331ms total)
T13C4 001:519 JLINK_WriteReg(R14, 0x10000001)  returns 0x00 (0000ms, 1331ms total)
T13C4 001:519 JLINK_WriteReg(R15, 0x10000020)  returns 0x00 (0000ms, 1331ms total)
T13C4 001:519 JLINK_WriteReg(XPSR, 0x01000000)  returns 0x00 (0000ms, 1331ms total)
T13C4 001:519 JLINK_WriteReg(MSP, 0x10000800)  returns 0x00 (0000ms, 1331ms total)
T13C4 001:519 JLINK_WriteReg(PSP, 0x10000800)  returns 0x00 (0000ms, 1331ms total)
T13C4 001:519 JLINK_WriteReg(CFBP, 0x00000000)  returns 0x00 (0000ms, 1331ms total)
T13C4 001:519 JLINK_SetBPEx(Addr = 0x10000000, Type = 0xFFFFFFF2)  returns 0x00000004 (0000ms, 1331ms total)
T13C4 001:519 JLINK_Go() >0x1D0 JTAG> >0x1D0 JTAG> >0x1D0 JTAG> >0x1D0 JTAG> >0x1D0 JTAG> >0x1D0 JTAG> >0x2C8 JTAG> >0x1E8 JTAG> >0x1E8 JTAG> >0x1E8 JTAG> >0x1E8 JTAG> >0x1E8 JTAG> >0x1E8 JTAG> >0x1E8 JTAG> >0x218 JTAG> >0x218 JTAG> (0033ms, 1331ms total)
T13C4 001:552 JLINK_IsHalted() >0x170 JTAG> >0x1598 JTAG>  returns TRUE (0016ms, 1364ms total)
T13C4 001:568 JLINK_ReadReg(R15)  returns 0x10000000 (0000ms, 1364ms total)
T13C4 001:568 JLINK_ClrBPEx(BPHandle = 0x00000004)  returns 0x00 (0000ms, 1364ms total)
T13C4 001:568 JLINK_ReadReg(R0)  returns 0x00000001 (0000ms, 1364ms total)
T13C4 001:568 JLINK_WriteReg(R0, 0x00001000)  returns 0x00 (0000ms, 1364ms total)
T13C4 001:568 JLINK_WriteReg(R1, 0x00001000)  returns 0x00 (0000ms, 1364ms total)
T13C4 001:568 JLINK_WriteReg(R2, 0x000000FF)  returns 0x00 (0000ms, 1364ms total)
T13C4 001:568 JLINK_WriteReg(R3, 0x00000000)  returns 0x00 (0000ms, 1364ms total)
T13C4 001:568 JLINK_WriteReg(R4, 0x00000000)  returns 0x00 (0000ms, 1364ms total)
T13C4 001:568 JLINK_WriteReg(R5, 0x00000000)  returns 0x00 (0000ms, 1364ms total)
T13C4 001:568 JLINK_WriteReg(R6, 0x00000000)  returns 0x00 (0000ms, 1364ms total)
T13C4 001:568 JLINK_WriteReg(R7, 0x00000000)  returns 0x00 (0000ms, 1364ms total)
T13C4 001:568 JLINK_WriteReg(R8, 0x00000000)  returns 0x00 (0001ms, 1364ms total)
T13C4 001:569 JLINK_WriteReg(R9, 0x10000174)  returns 0x00 (0000ms, 1365ms total)
T13C4 001:569 JLINK_WriteReg(R10, 0x00000000)  returns 0x00 (0000ms, 1365ms total)
T13C4 001:569 JLINK_WriteReg(R11, 0x00000000)  returns 0x00 (0000ms, 1365ms total)
T13C4 001:569 JLINK_WriteReg(R12, 0x00000000)  returns 0x00 (0000ms, 1365ms total)
T13C4 001:569 JLINK_WriteReg(R13, 0x10000800)  returns 0x00 (0000ms, 1365ms total)
T13C4 001:569 JLINK_WriteReg(R14, 0x10000001)  returns 0x00 (0000ms, 1365ms total)
T13C4 001:569 JLINK_WriteReg(R15, 0x100000AE)  returns 0x00 (0000ms, 1365ms total)
T13C4 001:569 JLINK_WriteReg(XPSR, 0x01000000)  returns 0x00 (0000ms, 1365ms total)
T13C4 001:569 JLINK_WriteReg(MSP, 0x10000800)  returns 0x00 (0000ms, 1365ms total)
T13C4 001:569 JLINK_WriteReg(PSP, 0x10000800)  returns 0x00 (0000ms, 1365ms total)
T13C4 001:569 JLINK_WriteReg(CFBP, 0x00000000)  returns 0x00 (0000ms, 1365ms total)
T13C4 001:569 JLINK_SetBPEx(Addr = 0x10000000, Type = 0xFFFFFFF2)  returns 0x00000005 (0000ms, 1365ms total)
T13C4 001:569 JLINK_Go() >0x1D0 JTAG> >0x1D0 JTAG> >0x1D0 JTAG> >0x1D0 JTAG> >0x1D0 JTAG> >0x1D0 JTAG> >0x2C8 JTAG> >0x1E8 JTAG> >0x1E8 JTAG> >0x1E8 JTAG> >0x218 JTAG> >0x218 JTAG> (0032ms, 1365ms total)
T13C4 001:601 JLINK_IsHalted() >0x170 JTAG>  returns FALSE (0001ms, 1397ms total)
T13C4 001:652 JLINK_IsHalted() >0x170 JTAG>  returns FALSE (0001ms, 1397ms total)
T13C4 001:703 JLINK_IsHalted() >0x170 JTAG> >0x1598 JTAG>  returns TRUE (0011ms, 1397ms total)
T13C4 001:714 JLINK_ReadReg(R15)  returns 0x10000000 (0000ms, 1397ms total)
T13C4 001:714 JLINK_ClrBPEx(BPHandle = 0x00000005)  returns 0x00 (0000ms, 1397ms total)
T13C4 001:714 JLINK_ReadReg(R0)  returns 0x00000000 (0000ms, 1397ms total)
T13C4 001:715 JLINK_WriteReg(R0, 0x00002000)  returns 0x00 (0001ms, 1397ms total)
T13C4 001:716 JLINK_WriteReg(R1, 0x00001000)  returns 0x00 (0000ms, 1398ms total)
T13C4 001:716 JLINK_WriteReg(R2, 0x000000FF)  returns 0x00 (0000ms, 1398ms total)
T13C4 001:716 JLINK_WriteReg(R3, 0x00000000)  returns 0x00 (0000ms, 1398ms total)
T13C4 001:716 JLINK_WriteReg(R4, 0x00000000)  returns 0x00 (0000ms, 1398ms total)
T13C4 001:716 JLINK_WriteReg(R5, 0x00000000)  returns 0x00 (0000ms, 1398ms total)
T13C4 001:716 JLINK_WriteReg(R6, 0x00000000)  returns 0x00 (0000ms, 1398ms total)
T13C4 001:716 JLINK_WriteReg(R7, 0x00000000)  returns 0x00 (0000ms, 1398ms total)
T13C4 001:716 JLINK_WriteReg(R8, 0x00000000)  returns 0x00 (0000ms, 1398ms total)
T13C4 001:716 JLINK_WriteReg(R9, 0x10000174)  returns 0x00 (0000ms, 1398ms total)
T13C4 001:716 JLINK_WriteReg(R10, 0x00000000)  returns 0x00 (0000ms, 1398ms total)
T13C4 001:716 JLINK_WriteReg(R11, 0x00000000)  returns 0x00 (0000ms, 1398ms total)
T13C4 001:716 JLINK_WriteReg(R12, 0x00000000)  returns 0x00 (0000ms, 1398ms total)
T13C4 001:716 JLINK_WriteReg(R13, 0x10000800)  returns 0x00 (0000ms, 1398ms total)
T13C4 001:716 JLINK_WriteReg(R14, 0x10000001)  returns 0x00 (0000ms, 1398ms total)
T13C4 001:716 JLINK_WriteReg(R15, 0x10000020)  returns 0x00 (0000ms, 1398ms total)
T13C4 001:716 JLINK_WriteReg(XPSR, 0x01000000)  returns 0x00 (0000ms, 1398ms total)
T13C4 001:716 JLINK_WriteReg(MSP, 0x10000800)  returns 0x00 (0000ms, 1398ms total)
T13C4 001:716 JLINK_WriteReg(PSP, 0x10000800)  returns 0x00 (0000ms, 1398ms total)
T13C4 001:716 JLINK_WriteReg(CFBP, 0x00000000)  returns 0x00 (0000ms, 1398ms total)
T13C4 001:716 JLINK_SetBPEx(Addr = 0x10000000, Type = 0xFFFFFFF2)  returns 0x00000006 (0000ms, 1398ms total)
T13C4 001:716 JLINK_Go() >0x1D0 JTAG> >0x1D0 JTAG> >0x1D0 JTAG> >0x1D0 JTAG> >0x1D0 JTAG> >0x1D0 JTAG> >0x2C8 JTAG> >0x1E8 JTAG> >0x1E8 JTAG> >0x1E8 JTAG> >0x1E8 JTAG> >0x1E8 JTAG> >0x1E8 JTAG> >0x1E8 JTAG> >0x218 JTAG> >0x218 JTAG> (0028ms, 1398ms total)
T13C4 001:744 JLINK_IsHalted() >0x170 JTAG> >0x1598 JTAG>  returns TRUE (0012ms, 1426ms total)
T13C4 001:756 JLINK_ReadReg(R15)  returns 0x10000000 (0000ms, 1426ms total)
T13C4 001:756 JLINK_ClrBPEx(BPHandle = 0x00000006)  returns 0x00 (0000ms, 1426ms total)
T13C4 001:756 JLINK_ReadReg(R0)  returns 0x00000001 (0000ms, 1426ms total)
T13C4 001:756 JLINK_WriteReg(R0, 0x00002000)  returns 0x00 (0000ms, 1426ms total)
T13C4 001:756 JLINK_WriteReg(R1, 0x00001000)  returns 0x00 (0000ms, 1426ms total)
T13C4 001:756 JLINK_WriteReg(R2, 0x000000FF)  returns 0x00 (0000ms, 1426ms total)
T13C4 001:756 JLINK_WriteReg(R3, 0x00000000)  returns 0x00 (0001ms, 1426ms total)
T13C4 001:757 JLINK_WriteReg(R4, 0x00000000)  returns 0x00 (0000ms, 1427ms total)
T13C4 001:757 JLINK_WriteReg(R5, 0x00000000)  returns 0x00 (0000ms, 1427ms total)
T13C4 001:757 JLINK_WriteReg(R6, 0x00000000)  returns 0x00 (0000ms, 1427ms total)
T13C4 001:757 JLINK_WriteReg(R7, 0x00000000)  returns 0x00 (0000ms, 1427ms total)
T13C4 001:757 JLINK_WriteReg(R8, 0x00000000)  returns 0x00 (0000ms, 1427ms total)
T13C4 001:757 JLINK_WriteReg(R9, 0x10000174)  returns 0x00 (0000ms, 1427ms total)
T13C4 001:757 JLINK_WriteReg(R10, 0x00000000)  returns 0x00 (0000ms, 1427ms total)
T13C4 001:757 JLINK_WriteReg(R11, 0x00000000)  returns 0x00 (0000ms, 1427ms total)
T13C4 001:757 JLINK_WriteReg(R12, 0x00000000)  returns 0x00 (0000ms, 1427ms total)
T13C4 001:757 JLINK_WriteReg(R13, 0x10000800)  returns 0x00 (0000ms, 1427ms total)
T13C4 001:757 JLINK_WriteReg(R14, 0x10000001)  returns 0x00 (0000ms, 1427ms total)
T13C4 001:757 JLINK_WriteReg(R15, 0x100000AE)  returns 0x00 (0000ms, 1427ms total)
T13C4 001:757 JLINK_WriteReg(XPSR, 0x01000000)  returns 0x00 (0000ms, 1427ms total)
T13C4 001:757 JLINK_WriteReg(MSP, 0x10000800)  returns 0x00 (0000ms, 1427ms total)
T13C4 001:757 JLINK_WriteReg(PSP, 0x10000800)  returns 0x00 (0000ms, 1427ms total)
T13C4 001:757 JLINK_WriteReg(CFBP, 0x00000000)  returns 0x00 (0000ms, 1427ms total)
T13C4 001:757 JLINK_SetBPEx(Addr = 0x10000000, Type = 0xFFFFFFF2)  returns 0x00000007 (0000ms, 1427ms total)
T13C4 001:757 JLINK_Go() >0x1D0 JTAG> >0x1D0 JTAG> >0x1D0 JTAG> >0x1D0 JTAG> >0x1D0 JTAG> >0x1D0 JTAG> >0x2C8 JTAG> >0x1E8 JTAG> >0x1E8 JTAG> >0x1E8 JTAG> >0x218 JTAG> >0x218 JTAG> (0018ms, 1427ms total)
T13C4 001:775 JLINK_IsHalted() >0x170 JTAG>  returns FALSE (0001ms, 1445ms total)
T13C4 001:826 JLINK_IsHalted() >0x170 JTAG>  returns FALSE (0001ms, 1445ms total)
T13C4 001:877 JLINK_IsHalted() >0x170 JTAG> >0x1598 JTAG>  returns TRUE (0011ms, 1445ms total)
T13C4 001:888 JLINK_ReadReg(R15)  returns 0x10000000 (0000ms, 1445ms total)
T13C4 001:888 JLINK_ClrBPEx(BPHandle = 0x00000007)  returns 0x00 (0000ms, 1445ms total)
T13C4 001:888 JLINK_ReadReg(R0)  returns 0x00000000 (0000ms, 1445ms total)
T13C4 001:889 JLINK_WriteReg(R0, 0x00003000)  returns 0x00 (0000ms, 1445ms total)
T13C4 001:889 JLINK_WriteReg(R1, 0x00001000)  returns 0x00 (0000ms, 1445ms total)
T13C4 001:889 JLINK_WriteReg(R2, 0x000000FF)  returns 0x00 (0000ms, 1445ms total)
T13C4 001:889 JLINK_WriteReg(R3, 0x00000000)  returns 0x00 (0000ms, 1445ms total)
T13C4 001:889 JLINK_WriteReg(R4, 0x00000000)  returns 0x00 (0000ms, 1445ms total)
T13C4 001:889 JLINK_WriteReg(R5, 0x00000000)  returns 0x00 (0000ms, 1445ms total)
T13C4 001:889 JLINK_WriteReg(R6, 0x00000000)  returns 0x00 (0000ms, 1445ms total)
T13C4 001:889 JLINK_WriteReg(R7, 0x00000000)  returns 0x00 (0000ms, 1445ms total)
T13C4 001:889 JLINK_WriteReg(R8, 0x00000000)  returns 0x00 (0000ms, 1445ms total)
T13C4 001:889 JLINK_WriteReg(R9, 0x10000174)  returns 0x00 (0000ms, 1445ms total)
T13C4 001:889 JLINK_WriteReg(R10, 0x00000000)  returns 0x00 (0000ms, 1445ms total)
T13C4 001:889 JLINK_WriteReg(R11, 0x00000000)  returns 0x00 (0000ms, 1445ms total)
T13C4 001:889 JLINK_WriteReg(R12, 0x00000000)  returns 0x00 (0000ms, 1445ms total)
T13C4 001:889 JLINK_WriteReg(R13, 0x10000800)  returns 0x00 (0000ms, 1445ms total)
T13C4 001:889 JLINK_WriteReg(R14, 0x10000001)  returns 0x00 (0000ms, 1445ms total)
T13C4 001:889 JLINK_WriteReg(R15, 0x10000020)  returns 0x00 (0000ms, 1445ms total)
T13C4 001:889 JLINK_WriteReg(XPSR, 0x01000000)  returns 0x00 (0000ms, 1445ms total)
T13C4 001:889 JLINK_WriteReg(MSP, 0x10000800)  returns 0x00 (0000ms, 1445ms total)
T13C4 001:889 JLINK_WriteReg(PSP, 0x10000800)  returns 0x00 (0000ms, 1445ms total)
T13C4 001:889 JLINK_WriteReg(CFBP, 0x00000000)  returns 0x00 (0000ms, 1445ms total)
T13C4 001:889 JLINK_SetBPEx(Addr = 0x10000000, Type = 0xFFFFFFF2)  returns 0x00000008 (0000ms, 1445ms total)
T13C4 001:889 JLINK_Go() >0x1D0 JTAG> >0x1D0 JTAG> >0x1D0 JTAG> >0x1D0 JTAG> >0x1D0 JTAG> >0x1D0 JTAG> >0x2C8 JTAG> >0x1E8 JTAG> >0x1E8 JTAG> >0x1E8 JTAG> >0x1E8 JTAG> >0x1E8 JTAG> >0x1E8 JTAG> >0x1E8 JTAG> >0x218 JTAG> >0x218 JTAG> (0032ms, 1445ms total)
T13C4 001:921 JLINK_IsHalted() >0x170 JTAG> >0x1598 JTAG>  returns TRUE (0011ms, 1477ms total)
T13C4 001:932 JLINK_ReadReg(R15)  returns 0x10000000 (0000ms, 1477ms total)
T13C4 001:932 JLINK_ClrBPEx(BPHandle = 0x00000008)  returns 0x00 (0000ms, 1477ms total)
T13C4 001:932 JLINK_ReadReg(R0)  returns 0x00000001 (0000ms, 1477ms total)
T13C4 001:932 JLINK_WriteReg(R0, 0x00003000)  returns 0x00 (0000ms, 1477ms total)
T13C4 001:932 JLINK_WriteReg(R1, 0x00001000)  returns 0x00 (0000ms, 1477ms total)
T13C4 001:932 JLINK_WriteReg(R2, 0x000000FF)  returns 0x00 (0000ms, 1477ms total)
T13C4 001:932 JLINK_WriteReg(R3, 0x00000000)  returns 0x00 (0000ms, 1477ms total)
T13C4 001:932 JLINK_WriteReg(R4, 0x00000000)  returns 0x00 (0000ms, 1477ms total)
T13C4 001:932 JLINK_WriteReg(R5, 0x00000000)  returns 0x00 (0000ms, 1477ms total)
T13C4 001:932 JLINK_WriteReg(R6, 0x00000000)  returns 0x00 (0000ms, 1477ms total)
T13C4 001:932 JLINK_WriteReg(R7, 0x00000000)  returns 0x00 (0000ms, 1477ms total)
T13C4 001:932 JLINK_WriteReg(R8, 0x00000000)  returns 0x00 (0000ms, 1477ms total)
T13C4 001:932 JLINK_WriteReg(R9, 0x10000174)  returns 0x00 (0000ms, 1477ms total)
T13C4 001:932 JLINK_WriteReg(R10, 0x00000000)  returns 0x00 (0000ms, 1477ms total)
T13C4 001:932 JLINK_WriteReg(R11, 0x00000000)  returns 0x00 (0000ms, 1477ms total)
T13C4 001:932 JLINK_WriteReg(R12, 0x00000000)  returns 0x00 (0000ms, 1477ms total)
T13C4 001:932 JLINK_WriteReg(R13, 0x10000800)  returns 0x00 (0000ms, 1477ms total)
T13C4 001:932 JLINK_WriteReg(R14, 0x10000001)  returns 0x00 (0000ms, 1477ms total)
T13C4 001:932 JLINK_WriteReg(R15, 0x100000AE)  returns 0x00 (0000ms, 1477ms total)
T13C4 001:932 JLINK_WriteReg(XPSR, 0x01000000)  returns 0x00 (0000ms, 1477ms total)
T13C4 001:932 JLINK_WriteReg(MSP, 0x10000800)  returns 0x00 (0000ms, 1477ms total)
T13C4 001:932 JLINK_WriteReg(PSP, 0x10000800)  returns 0x00 (0000ms, 1477ms total)
T13C4 001:932 JLINK_WriteReg(CFBP, 0x00000000)  returns 0x00 (0000ms, 1477ms total)
T13C4 001:932 JLINK_SetBPEx(Addr = 0x10000000, Type = 0xFFFFFFF2)  returns 0x00000009 (0000ms, 1477ms total)
T13C4 001:932 JLINK_Go() >0x1D0 JTAG> >0x1D0 JTAG> >0x1D0 JTAG> >0x1D0 JTAG> >0x1D0 JTAG> >0x1D0 JTAG> >0x2C8 JTAG> >0x1E8 JTAG> >0x1E8 JTAG> >0x1E8 JTAG> >0x218 JTAG> >0x218 JTAG> (0024ms, 1477ms total)
T13C4 001:956 JLINK_IsHalted() >0x170 JTAG>  returns FALSE (0001ms, 1501ms total)
T13C4 002:007 JLINK_IsHalted() >0x170 JTAG>  returns FALSE (0001ms, 1501ms total)
T13C4 002:058 JLINK_IsHalted() >0x170 JTAG> >0x1598 JTAG>  returns TRUE (0011ms, 1501ms total)
T13C4 002:069 JLINK_ReadReg(R15)  returns 0x10000000 (0000ms, 1501ms total)
T13C4 002:069 JLINK_ClrBPEx(BPHandle = 0x00000009)  returns 0x00 (0000ms, 1501ms total)
T13C4 002:069 JLINK_ReadReg(R0)  returns 0x00000000 (0000ms, 1501ms total)
T13C4 002:069 JLINK_WriteReg(R0, 0x00004000)  returns 0x00 (0000ms, 1501ms total)
T13C4 002:069 JLINK_WriteReg(R1, 0x00001000)  returns 0x00 (0000ms, 1501ms total)
T13C4 002:069 JLINK_WriteReg(R2, 0x000000FF)  returns 0x00 (0000ms, 1501ms total)
T13C4 002:069 JLINK_WriteReg(R3, 0x00000000)  returns 0x00 (0000ms, 1501ms total)
T13C4 002:069 JLINK_WriteReg(R4, 0x00000000)  returns 0x00 (0001ms, 1501ms total)
T13C4 002:070 JLINK_WriteReg(R5, 0x00000000)  returns 0x00 (0000ms, 1502ms total)
T13C4 002:070 JLINK_WriteReg(R6, 0x00000000)  returns 0x00 (0000ms, 1502ms total)
T13C4 002:070 JLINK_WriteReg(R7, 0x00000000)  returns 0x00 (0000ms, 1502ms total)
T13C4 002:070 JLINK_WriteReg(R8, 0x00000000)  returns 0x00 (0000ms, 1502ms total)
T13C4 002:070 JLINK_WriteReg(R9, 0x10000174)  returns 0x00 (0000ms, 1502ms total)
T13C4 002:070 JLINK_WriteReg(R10, 0x00000000)  returns 0x00 (0000ms, 1502ms total)
T13C4 002:070 JLINK_WriteReg(R11, 0x00000000)  returns 0x00 (0000ms, 1502ms total)
T13C4 002:070 JLINK_WriteReg(R12, 0x00000000)  returns 0x00 (0000ms, 1502ms total)
T13C4 002:070 JLINK_WriteReg(R13, 0x10000800)  returns 0x00 (0000ms, 1502ms total)
T13C4 002:070 JLINK_WriteReg(R14, 0x10000001)  returns 0x00 (0000ms, 1502ms total)
T13C4 002:070 JLINK_WriteReg(R15, 0x10000020)  returns 0x00 (0000ms, 1502ms total)
T13C4 002:070 JLINK_WriteReg(XPSR, 0x01000000)  returns 0x00 (0000ms, 1502ms total)
T13C4 002:070 JLINK_WriteReg(MSP, 0x10000800)  returns 0x00 (0000ms, 1502ms total)
T13C4 002:070 JLINK_WriteReg(PSP, 0x10000800)  returns 0x00 (0000ms, 1502ms total)
T13C4 002:070 JLINK_WriteReg(CFBP, 0x00000000)  returns 0x00 (0000ms, 1502ms total)
T13C4 002:070 JLINK_SetBPEx(Addr = 0x10000000, Type = 0xFFFFFFF2)  returns 0x0000000A (0000ms, 1502ms total)
T13C4 002:070 JLINK_Go() >0x1D0 JTAG> >0x1D0 JTAG> >0x1D0 JTAG> >0x1D0 JTAG> >0x1D0 JTAG> >0x1D0 JTAG> >0x2C8 JTAG> >0x1E8 JTAG> >0x1E8 JTAG> >0x1E8 JTAG> >0x1E8 JTAG> >0x1E8 JTAG> >0x1E8 JTAG> >0x1E8 JTAG> >0x218 JTAG> >0x218 JTAG> (0030ms, 1502ms total)
T13C4 002:100 JLINK_IsHalted() >0x170 JTAG> >0x1598 JTAG>  returns TRUE (0011ms, 1532ms total)
T13C4 002:111 JLINK_ReadReg(R15)  returns 0x10000000 (0000ms, 1532ms total)
T13C4 002:111 JLINK_ClrBPEx(BPHandle = 0x0000000A)  returns 0x00 (0000ms, 1532ms total)
T13C4 002:111 JLINK_ReadReg(R0)  returns 0x00000001 (0000ms, 1532ms total)
T13C4 002:111 JLINK_WriteReg(R0, 0x00004000)  returns 0x00 (0000ms, 1532ms total)
T13C4 002:111 JLINK_WriteReg(R1, 0x00001000)  returns 0x00 (0000ms, 1532ms total)
T13C4 002:111 JLINK_WriteReg(R2, 0x000000FF)  returns 0x00 (0000ms, 1532ms total)
T13C4 002:111 JLINK_WriteReg(R3, 0x00000000)  returns 0x00 (0000ms, 1532ms total)
T13C4 002:111 JLINK_WriteReg(R4, 0x00000000)  returns 0x00 (0000ms, 1532ms total)
T13C4 002:111 JLINK_WriteReg(R5, 0x00000000)  returns 0x00 (0000ms, 1532ms total)
T13C4 002:111 JLINK_WriteReg(R6, 0x00000000)  returns 0x00 (0000ms, 1532ms total)
T13C4 002:111 JLINK_WriteReg(R7, 0x00000000)  returns 0x00 (0000ms, 1532ms total)
T13C4 002:111 JLINK_WriteReg(R8, 0x00000000)  returns 0x00 (0000ms, 1532ms total)
T13C4 002:111 JLINK_WriteReg(R9, 0x10000174)  returns 0x00 (0000ms, 1532ms total)
T13C4 002:111 JLINK_WriteReg(R10, 0x00000000)  returns 0x00 (0000ms, 1532ms total)
T13C4 002:111 JLINK_WriteReg(R11, 0x00000000)  returns 0x00 (0000ms, 1532ms total)
T13C4 002:111 JLINK_WriteReg(R12, 0x00000000)  returns 0x00 (0000ms, 1532ms total)
T13C4 002:111 JLINK_WriteReg(R13, 0x10000800)  returns 0x00 (0000ms, 1532ms total)
T13C4 002:111 JLINK_WriteReg(R14, 0x10000001)  returns 0x00 (0000ms, 1532ms total)
T13C4 002:111 JLINK_WriteReg(R15, 0x100000AE)  returns 0x00 (0000ms, 1532ms total)
T13C4 002:111 JLINK_WriteReg(XPSR, 0x01000000)  returns 0x00 (0000ms, 1532ms total)
T13C4 002:111 JLINK_WriteReg(MSP, 0x10000800)  returns 0x00 (0000ms, 1532ms total)
T13C4 002:111 JLINK_WriteReg(PSP, 0x10000800)  returns 0x00 (0000ms, 1532ms total)
T13C4 002:111 JLINK_WriteReg(CFBP, 0x00000000)  returns 0x00 (0000ms, 1532ms total)
T13C4 002:111 JLINK_SetBPEx(Addr = 0x10000000, Type = 0xFFFFFFF2)  returns 0x0000000B (0000ms, 1532ms total)
T13C4 002:111 JLINK_Go() >0x1D0 JTAG> >0x1D0 JTAG> >0x1D0 JTAG> >0x1D0 JTAG> >0x1D0 JTAG> >0x1D0 JTAG> >0x2C8 JTAG> >0x1E8 JTAG> >0x1E8 JTAG> >0x1E8 JTAG> >0x218 JTAG> >0x218 JTAG> (0023ms, 1532ms total)
T13C4 002:134 JLINK_IsHalted() >0x170 JTAG>  returns FALSE (0001ms, 1555ms total)
T13C4 002:185 JLINK_IsHalted() >0x170 JTAG>  returns FALSE (0001ms, 1555ms total)
T13C4 002:236 JLINK_IsHalted() >0x170 JTAG> >0x1598 JTAG>  returns TRUE (0013ms, 1555ms total)
T13C4 002:249 JLINK_ReadReg(R15)  returns 0x10000000 (0000ms, 1555ms total)
T13C4 002:249 JLINK_ClrBPEx(BPHandle = 0x0000000B)  returns 0x00 (0000ms, 1555ms total)
T13C4 002:249 JLINK_ReadReg(R0)  returns 0x00000000 (0000ms, 1555ms total)
T13C4 002:250 JLINK_WriteReg(R0, 0x00005000)  returns 0x00 (0000ms, 1555ms total)
T13C4 002:250 JLINK_WriteReg(R1, 0x00001000)  returns 0x00 (0000ms, 1555ms total)
T13C4 002:250 JLINK_WriteReg(R2, 0x000000FF)  returns 0x00 (0000ms, 1555ms total)
T13C4 002:250 JLINK_WriteReg(R3, 0x00000000)  returns 0x00 (0000ms, 1555ms total)
T13C4 002:250 JLINK_WriteReg(R4, 0x00000000)  returns 0x00 (0000ms, 1555ms total)
T13C4 002:250 JLINK_WriteReg(R5, 0x00000000)  returns 0x00 (0000ms, 1555ms total)
T13C4 002:250 JLINK_WriteReg(R6, 0x00000000)  returns 0x00 (0000ms, 1555ms total)
T13C4 002:250 JLINK_WriteReg(R7, 0x00000000)  returns 0x00 (0000ms, 1555ms total)
T13C4 002:250 JLINK_WriteReg(R8, 0x00000000)  returns 0x00 (0000ms, 1555ms total)
T13C4 002:250 JLINK_WriteReg(R9, 0x10000174)  returns 0x00 (0000ms, 1555ms total)
T13C4 002:250 JLINK_WriteReg(R10, 0x00000000)  returns 0x00 (0000ms, 1555ms total)
T13C4 002:250 JLINK_WriteReg(R11, 0x00000000)  returns 0x00 (0000ms, 1555ms total)
T13C4 002:250 JLINK_WriteReg(R12, 0x00000000)  returns 0x00 (0000ms, 1555ms total)
T13C4 002:250 JLINK_WriteReg(R13, 0x10000800)  returns 0x00 (0000ms, 1555ms total)
T13C4 002:250 JLINK_WriteReg(R14, 0x10000001)  returns 0x00 (0000ms, 1555ms total)
T13C4 002:251 JLINK_WriteReg(R15, 0x10000020)  returns 0x00 (0000ms, 1556ms total)
T13C4 002:251 JLINK_WriteReg(XPSR, 0x01000000)  returns 0x00 (0000ms, 1556ms total)
T13C4 002:251 JLINK_WriteReg(MSP, 0x10000800)  returns 0x00 (0000ms, 1556ms total)
T13C4 002:251 JLINK_WriteReg(PSP, 0x10000800)  returns 0x00 (0000ms, 1556ms total)
T13C4 002:251 JLINK_WriteReg(CFBP, 0x00000000)  returns 0x00 (0000ms, 1556ms total)
T13C4 002:251 JLINK_SetBPEx(Addr = 0x10000000, Type = 0xFFFFFFF2)  returns 0x0000000C (0000ms, 1556ms total)
T13C4 002:251 JLINK_Go() >0x1D0 JTAG> >0x1D0 JTAG> >0x1D0 JTAG> >0x1D0 JTAG> >0x1D0 JTAG> >0x1D0 JTAG> >0x2C8 JTAG> >0x1E8 JTAG> >0x1E8 JTAG> >0x1E8 JTAG> >0x1E8 JTAG> >0x1E8 JTAG> >0x1E8 JTAG> >0x1E8 JTAG> >0x218 JTAG> >0x218 JTAG> (0031ms, 1556ms total)
T13C4 002:282 JLINK_IsHalted() >0x170 JTAG> >0x1598 JTAG>  returns TRUE (0011ms, 1587ms total)
T13C4 002:293 JLINK_ReadReg(R15)  returns 0x10000000 (0000ms, 1587ms total)
T13C4 002:293 JLINK_ClrBPEx(BPHandle = 0x0000000C)  returns 0x00 (0000ms, 1587ms total)
T13C4 002:293 JLINK_ReadReg(R0)  returns 0x00000001 (0000ms, 1587ms total)
T13C4 002:293 JLINK_WriteReg(R0, 0x00005000)  returns 0x00 (0000ms, 1587ms total)
T13C4 002:293 JLINK_WriteReg(R1, 0x00001000)  returns 0x00 (0000ms, 1587ms total)
T13C4 002:293 JLINK_WriteReg(R2, 0x000000FF)  returns 0x00 (0000ms, 1587ms total)
T13C4 002:293 JLINK_WriteReg(R3, 0x00000000)  returns 0x00 (0000ms, 1587ms total)
T13C4 002:293 JLINK_WriteReg(R4, 0x00000000)  returns 0x00 (0000ms, 1587ms total)
T13C4 002:293 JLINK_WriteReg(R5, 0x00000000)  returns 0x00 (0000ms, 1587ms total)
T13C4 002:293 JLINK_WriteReg(R6, 0x00000000)  returns 0x00 (0000ms, 1587ms total)
T13C4 002:293 JLINK_WriteReg(R7, 0x00000000)  returns 0x00 (0000ms, 1587ms total)
T13C4 002:293 JLINK_WriteReg(R8, 0x00000000)  returns 0x00 (0000ms, 1587ms total)
T13C4 002:293 JLINK_WriteReg(R9, 0x10000174)  returns 0x00 (0000ms, 1587ms total)
T13C4 002:294 JLINK_WriteReg(R10, 0x00000000)  returns 0x00 (0000ms, 1588ms total)
T13C4 002:294 JLINK_WriteReg(R11, 0x00000000)  returns 0x00 (0000ms, 1588ms total)
T13C4 002:294 JLINK_WriteReg(R12, 0x00000000)  returns 0x00 (0000ms, 1588ms total)
T13C4 002:294 JLINK_WriteReg(R13, 0x10000800)  returns 0x00 (0000ms, 1588ms total)
T13C4 002:294 JLINK_WriteReg(R14, 0x10000001)  returns 0x00 (0000ms, 1588ms total)
T13C4 002:294 JLINK_WriteReg(R15, 0x100000AE)  returns 0x00 (0000ms, 1588ms total)
T13C4 002:294 JLINK_WriteReg(XPSR, 0x01000000)  returns 0x00 (0000ms, 1588ms total)
T13C4 002:294 JLINK_WriteReg(MSP, 0x10000800)  returns 0x00 (0000ms, 1588ms total)
T13C4 002:294 JLINK_WriteReg(PSP, 0x10000800)  returns 0x00 (0000ms, 1588ms total)
T13C4 002:294 JLINK_WriteReg(CFBP, 0x00000000)  returns 0x00 (0000ms, 1588ms total)
T13C4 002:294 JLINK_SetBPEx(Addr = 0x10000000, Type = 0xFFFFFFF2)  returns 0x0000000D (0000ms, 1588ms total)
T13C4 002:294 JLINK_Go() >0x1D0 JTAG> >0x1D0 JTAG> >0x1D0 JTAG> >0x1D0 JTAG> >0x1D0 JTAG> >0x1D0 JTAG> >0x2C8 JTAG> >0x1E8 JTAG> >0x1E8 JTAG> >0x1E8 JTAG> >0x218 JTAG> >0x218 JTAG> (0022ms, 1588ms total)
T13C4 002:316 JLINK_IsHalted() >0x170 JTAG>  returns FALSE (0001ms, 1610ms total)
T13C4 002:367 JLINK_IsHalted() >0x170 JTAG>  returns FALSE (0001ms, 1610ms total)
T13C4 002:418 JLINK_IsHalted() >0x170 JTAG> >0x1598 JTAG>  returns TRUE (0011ms, 1610ms total)
T13C4 002:429 JLINK_ReadReg(R15)  returns 0x10000000 (0000ms, 1610ms total)
T13C4 002:429 JLINK_ClrBPEx(BPHandle = 0x0000000D)  returns 0x00 (0000ms, 1610ms total)
T13C4 002:429 JLINK_ReadReg(R0)  returns 0x00000000 (0000ms, 1610ms total)
T13C4 002:430 JLINK_WriteReg(R0, 0x00006000)  returns 0x00 (0000ms, 1610ms total)
T13C4 002:430 JLINK_WriteReg(R1, 0x00001000)  returns 0x00 (0000ms, 1610ms total)
T13C4 002:430 JLINK_WriteReg(R2, 0x000000FF)  returns 0x00 (0000ms, 1610ms total)
T13C4 002:430 JLINK_WriteReg(R3, 0x00000000)  returns 0x00 (0000ms, 1610ms total)
T13C4 002:430 JLINK_WriteReg(R4, 0x00000000)  returns 0x00 (0000ms, 1610ms total)
T13C4 002:430 JLINK_WriteReg(R5, 0x00000000)  returns 0x00 (0000ms, 1610ms total)
T13C4 002:430 JLINK_WriteReg(R6, 0x00000000)  returns 0x00 (0001ms, 1610ms total)
T13C4 002:431 JLINK_WriteReg(R7, 0x00000000)  returns 0x00 (0000ms, 1611ms total)
T13C4 002:431 JLINK_WriteReg(R8, 0x00000000)  returns 0x00 (0000ms, 1611ms total)
T13C4 002:431 JLINK_WriteReg(R9, 0x10000174)  returns 0x00 (0000ms, 1611ms total)
T13C4 002:431 JLINK_WriteReg(R10, 0x00000000)  returns 0x00 (0000ms, 1611ms total)
T13C4 002:431 JLINK_WriteReg(R11, 0x00000000)  returns 0x00 (0000ms, 1611ms total)
T13C4 002:431 JLINK_WriteReg(R12, 0x00000000)  returns 0x00 (0000ms, 1611ms total)
T13C4 002:431 JLINK_WriteReg(R13, 0x10000800)  returns 0x00 (0000ms, 1611ms total)
T13C4 002:431 JLINK_WriteReg(R14, 0x10000001)  returns 0x00 (0000ms, 1611ms total)
T13C4 002:431 JLINK_WriteReg(R15, 0x10000020)  returns 0x00 (0000ms, 1611ms total)
T13C4 002:431 JLINK_WriteReg(XPSR, 0x01000000)  returns 0x00 (0000ms, 1611ms total)
T13C4 002:431 JLINK_WriteReg(MSP, 0x10000800)  returns 0x00 (0000ms, 1611ms total)
T13C4 002:431 JLINK_WriteReg(PSP, 0x10000800)  returns 0x00 (0000ms, 1611ms total)
T13C4 002:431 JLINK_WriteReg(CFBP, 0x00000000)  returns 0x00 (0000ms, 1611ms total)
T13C4 002:431 JLINK_SetBPEx(Addr = 0x10000000, Type = 0xFFFFFFF2)  returns 0x0000000E (0000ms, 1611ms total)
T13C4 002:431 JLINK_Go() >0x1D0 JTAG> >0x1D0 JTAG> >0x1D0 JTAG> >0x1D0 JTAG> >0x1D0 JTAG> >0x1D0 JTAG> >0x2C8 JTAG> >0x1E8 JTAG> >0x1E8 JTAG> >0x1E8 JTAG> >0x1E8 JTAG> >0x1E8 JTAG> >0x1E8 JTAG> >0x1E8 JTAG> >0x218 JTAG> >0x218 JTAG> (0032ms, 1611ms total)
T13C4 002:463 JLINK_IsHalted() >0x170 JTAG> >0x1598 JTAG>  returns TRUE (0011ms, 1643ms total)
T13C4 002:474 JLINK_ReadReg(R15)  returns 0x10000000 (0000ms, 1643ms total)
T13C4 002:474 JLINK_ClrBPEx(BPHandle = 0x0000000E)  returns 0x00 (0000ms, 1643ms total)
T13C4 002:474 JLINK_ReadReg(R0)  returns 0x00000001 (0000ms, 1643ms total)
T13C4 002:474 JLINK_WriteReg(R0, 0x00006000)  returns 0x00 (0000ms, 1643ms total)
T13C4 002:474 JLINK_WriteReg(R1, 0x00001000)  returns 0x00 (0000ms, 1643ms total)
T13C4 002:474 JLINK_WriteReg(R2, 0x000000FF)  returns 0x00 (0000ms, 1643ms total)
T13C4 002:474 JLINK_WriteReg(R3, 0x00000000)  returns 0x00 (0000ms, 1643ms total)
T13C4 002:474 JLINK_WriteReg(R4, 0x00000000)  returns 0x00 (0000ms, 1643ms total)
T13C4 002:474 JLINK_WriteReg(R5, 0x00000000)  returns 0x00 (0000ms, 1643ms total)
T13C4 002:474 JLINK_WriteReg(R6, 0x00000000)  returns 0x00 (0000ms, 1643ms total)
T13C4 002:474 JLINK_WriteReg(R7, 0x00000000)  returns 0x00 (0000ms, 1643ms total)
T13C4 002:474 JLINK_WriteReg(R8, 0x00000000)  returns 0x00 (0000ms, 1643ms total)
T13C4 002:474 JLINK_WriteReg(R9, 0x10000174)  returns 0x00 (0000ms, 1643ms total)
T13C4 002:474 JLINK_WriteReg(R10, 0x00000000)  returns 0x00 (0000ms, 1643ms total)
T13C4 002:474 JLINK_WriteReg(R11, 0x00000000)  returns 0x00 (0000ms, 1643ms total)
T13C4 002:474 JLINK_WriteReg(R12, 0x00000000)  returns 0x00 (0000ms, 1643ms total)
T13C4 002:474 JLINK_WriteReg(R13, 0x10000800)  returns 0x00 (0000ms, 1643ms total)
T13C4 002:474 JLINK_WriteReg(R14, 0x10000001)  returns 0x00 (0000ms, 1643ms total)
T13C4 002:474 JLINK_WriteReg(R15, 0x100000AE)  returns 0x00 (0000ms, 1643ms total)
T13C4 002:474 JLINK_WriteReg(XPSR, 0x01000000)  returns 0x00 (0000ms, 1643ms total)
T13C4 002:474 JLINK_WriteReg(MSP, 0x10000800)  returns 0x00 (0000ms, 1643ms total)
T13C4 002:474 JLINK_WriteReg(PSP, 0x10000800)  returns 0x00 (0000ms, 1643ms total)
T13C4 002:474 JLINK_WriteReg(CFBP, 0x00000000)  returns 0x00 (0000ms, 1643ms total)
T13C4 002:474 JLINK_SetBPEx(Addr = 0x10000000, Type = 0xFFFFFFF2)  returns 0x0000000F (0000ms, 1643ms total)
T13C4 002:474 JLINK_Go() >0x1D0 JTAG> >0x1D0 JTAG> >0x1D0 JTAG> >0x1D0 JTAG> >0x1D0 JTAG> >0x1D0 JTAG> >0x2C8 JTAG> >0x1E8 JTAG> >0x1E8 JTAG> >0x1E8 JTAG> >0x218 JTAG> >0x218 JTAG> (0024ms, 1643ms total)
T13C4 002:498 JLINK_IsHalted() >0x170 JTAG>  returns FALSE (0001ms, 1667ms total)
T13C4 002:549 JLINK_IsHalted() >0x170 JTAG>  returns FALSE (0001ms, 1667ms total)
T13C4 002:600 JLINK_IsHalted() >0x170 JTAG> >0x1598 JTAG>  returns TRUE (0011ms, 1667ms total)
T13C4 002:611 JLINK_ReadReg(R15)  returns 0x10000000 (0000ms, 1667ms total)
T13C4 002:611 JLINK_ClrBPEx(BPHandle = 0x0000000F)  returns 0x00 (0000ms, 1667ms total)
T13C4 002:611 JLINK_ReadReg(R0)  returns 0x00000000 (0000ms, 1667ms total)
T13C4 002:612 JLINK_WriteReg(R0, 0x00007000)  returns 0x00 (0000ms, 1667ms total)
T13C4 002:612 JLINK_WriteReg(R1, 0x00001000)  returns 0x00 (0000ms, 1667ms total)
T13C4 002:612 JLINK_WriteReg(R2, 0x000000FF)  returns 0x00 (0000ms, 1667ms total)
T13C4 002:612 JLINK_WriteReg(R3, 0x00000000)  returns 0x00 (0000ms, 1667ms total)
T13C4 002:612 JLINK_WriteReg(R4, 0x00000000)  returns 0x00 (0000ms, 1667ms total)
T13C4 002:612 JLINK_WriteReg(R5, 0x00000000)  returns 0x00 (0000ms, 1667ms total)
T13C4 002:612 JLINK_WriteReg(R6, 0x00000000)  returns 0x00 (0000ms, 1667ms total)
T13C4 002:612 JLINK_WriteReg(R7, 0x00000000)  returns 0x00 (0000ms, 1667ms total)
T13C4 002:612 JLINK_WriteReg(R8, 0x00000000)  returns 0x00 (0000ms, 1667ms total)
T13C4 002:612 JLINK_WriteReg(R9, 0x10000174)  returns 0x00 (0000ms, 1667ms total)
T13C4 002:612 JLINK_WriteReg(R10, 0x00000000)  returns 0x00 (0000ms, 1667ms total)
T13C4 002:612 JLINK_WriteReg(R11, 0x00000000)  returns 0x00 (0000ms, 1667ms total)
T13C4 002:612 JLINK_WriteReg(R12, 0x00000000)  returns 0x00 (0000ms, 1667ms total)
T13C4 002:612 JLINK_WriteReg(R13, 0x10000800)  returns 0x00 (0000ms, 1667ms total)
T13C4 002:612 JLINK_WriteReg(R14, 0x10000001)  returns 0x00 (0000ms, 1667ms total)
T13C4 002:613 JLINK_WriteReg(R15, 0x10000020)  returns 0x00 (0000ms, 1667ms total)
T13C4 002:613 JLINK_WriteReg(XPSR, 0x01000000)  returns 0x00 (0000ms, 1667ms total)
T13C4 002:613 JLINK_WriteReg(MSP, 0x10000800)  returns 0x00 (0000ms, 1667ms total)
T13C4 002:613 JLINK_WriteReg(PSP, 0x10000800)  returns 0x00 (0000ms, 1667ms total)
T13C4 002:613 JLINK_WriteReg(CFBP, 0x00000000)  returns 0x00 (0000ms, 1667ms total)
T13C4 002:613 JLINK_SetBPEx(Addr = 0x10000000, Type = 0xFFFFFFF2)  returns 0x00000010 (0000ms, 1667ms total)
T13C4 002:613 JLINK_Go() >0x1D0 JTAG> >0x1D0 JTAG> >0x1D0 JTAG> >0x1D0 JTAG> >0x1D0 JTAG> >0x1D0 JTAG> >0x2C8 JTAG> >0x1E8 JTAG> >0x1E8 JTAG> >0x1E8 JTAG> >0x1E8 JTAG> >0x1E8 JTAG> >0x1E8 JTAG> >0x1E8 JTAG> >0x218 JTAG> >0x218 JTAG> (0031ms, 1667ms total)
T13C4 002:644 JLINK_IsHalted() >0x170 JTAG> >0x1598 JTAG>  returns TRUE (0011ms, 1698ms total)
T13C4 002:655 JLINK_ReadReg(R15)  returns 0x10000000 (0000ms, 1698ms total)
T13C4 002:655 JLINK_ClrBPEx(BPHandle = 0x00000010)  returns 0x00 (0000ms, 1698ms total)
T13C4 002:655 JLINK_ReadReg(R0)  returns 0x00000001 (0000ms, 1698ms total)
T13C4 002:655 JLINK_WriteReg(R0, 0x00007000)  returns 0x00 (0000ms, 1698ms total)
T13C4 002:655 JLINK_WriteReg(R1, 0x00001000)  returns 0x00 (0000ms, 1698ms total)
T13C4 002:655 JLINK_WriteReg(R2, 0x000000FF)  returns 0x00 (0000ms, 1698ms total)
T13C4 002:655 JLINK_WriteReg(R3, 0x00000000)  returns 0x00 (0000ms, 1698ms total)
T13C4 002:655 JLINK_WriteReg(R4, 0x00000000)  returns 0x00 (0000ms, 1698ms total)
T13C4 002:655 JLINK_WriteReg(R5, 0x00000000)  returns 0x00 (0000ms, 1698ms total)
T13C4 002:655 JLINK_WriteReg(R6, 0x00000000)  returns 0x00 (0000ms, 1698ms total)
T13C4 002:655 JLINK_WriteReg(R7, 0x00000000)  returns 0x00 (0000ms, 1698ms total)
T13C4 002:655 JLINK_WriteReg(R8, 0x00000000)  returns 0x00 (0000ms, 1698ms total)
T13C4 002:655 JLINK_WriteReg(R9, 0x10000174)  returns 0x00 (0000ms, 1698ms total)
T13C4 002:655 JLINK_WriteReg(R10, 0x00000000)  returns 0x00 (0000ms, 1698ms total)
T13C4 002:655 JLINK_WriteReg(R11, 0x00000000)  returns 0x00 (0000ms, 1698ms total)
T13C4 002:655 JLINK_WriteReg(R12, 0x00000000)  returns 0x00 (0000ms, 1698ms total)
T13C4 002:655 JLINK_WriteReg(R13, 0x10000800)  returns 0x00 (0000ms, 1698ms total)
T13C4 002:655 JLINK_WriteReg(R14, 0x10000001)  returns 0x00 (0000ms, 1698ms total)
T13C4 002:655 JLINK_WriteReg(R15, 0x100000AE)  returns 0x00 (0000ms, 1698ms total)
T13C4 002:655 JLINK_WriteReg(XPSR, 0x01000000)  returns 0x00 (0000ms, 1698ms total)
T13C4 002:655 JLINK_WriteReg(MSP, 0x10000800)  returns 0x00 (0000ms, 1698ms total)
T13C4 002:655 JLINK_WriteReg(PSP, 0x10000800)  returns 0x00 (0001ms, 1698ms total)
T13C4 002:656 JLINK_WriteReg(CFBP, 0x00000000)  returns 0x00 (0000ms, 1699ms total)
T13C4 002:656 JLINK_SetBPEx(Addr = 0x10000000, Type = 0xFFFFFFF2)  returns 0x00000011 (0000ms, 1699ms total)
T13C4 002:656 JLINK_Go() >0x1D0 JTAG> >0x1D0 JTAG> >0x1D0 JTAG> >0x1D0 JTAG> >0x1D0 JTAG> >0x1D0 JTAG> >0x2C8 JTAG> >0x1E8 JTAG> >0x1E8 JTAG> >0x218 JTAG> >0x218 JTAG> (0021ms, 1699ms total)
T13C4 002:677 JLINK_IsHalted() >0x170 JTAG>  returns FALSE (0001ms, 1720ms total)
T13C4 002:728 JLINK_IsHalted() >0x170 JTAG>  returns FALSE (0001ms, 1720ms total)
T13C4 002:779 JLINK_IsHalted() >0x170 JTAG> >0x1598 JTAG>  returns TRUE (0011ms, 1720ms total)
T13C4 002:790 JLINK_ReadReg(R15)  returns 0x10000000 (0000ms, 1720ms total)
T13C4 002:790 JLINK_ClrBPEx(BPHandle = 0x00000011)  returns 0x00 (0000ms, 1720ms total)
T13C4 002:790 JLINK_ReadReg(R0)  returns 0x00000000 (0000ms, 1720ms total)
T13C4 002:791 JLINK_WriteReg(R0, 0x00008000)  returns 0x00 (0000ms, 1720ms total)
T13C4 002:791 JLINK_WriteReg(R1, 0x00001000)  returns 0x00 (0000ms, 1720ms total)
T13C4 002:791 JLINK_WriteReg(R2, 0x000000FF)  returns 0x00 (0000ms, 1720ms total)
T13C4 002:791 JLINK_WriteReg(R3, 0x00000000)  returns 0x00 (0000ms, 1720ms total)
T13C4 002:791 JLINK_WriteReg(R4, 0x00000000)  returns 0x00 (0000ms, 1720ms total)
T13C4 002:791 JLINK_WriteReg(R5, 0x00000000)  returns 0x00 (0000ms, 1720ms total)
T13C4 002:791 JLINK_WriteReg(R6, 0x00000000)  returns 0x00 (0000ms, 1720ms total)
T13C4 002:791 JLINK_WriteReg(R7, 0x00000000)  returns 0x00 (0000ms, 1720ms total)
T13C4 002:791 JLINK_WriteReg(R8, 0x00000000)  returns 0x00 (0000ms, 1720ms total)
T13C4 002:791 JLINK_WriteReg(R9, 0x10000174)  returns 0x00 (0000ms, 1720ms total)
T13C4 002:791 JLINK_WriteReg(R10, 0x00000000)  returns 0x00 (0000ms, 1720ms total)
T13C4 002:791 JLINK_WriteReg(R11, 0x00000000)  returns 0x00 (0000ms, 1720ms total)
T13C4 002:791 JLINK_WriteReg(R12, 0x00000000)  returns 0x00 (0000ms, 1720ms total)
T13C4 002:791 JLINK_WriteReg(R13, 0x10000800)  returns 0x00 (0000ms, 1720ms total)
T13C4 002:791 JLINK_WriteReg(R14, 0x10000001)  returns 0x00 (0000ms, 1720ms total)
T13C4 002:791 JLINK_WriteReg(R15, 0x10000020)  returns 0x00 (0001ms, 1720ms total)
T13C4 002:792 JLINK_WriteReg(XPSR, 0x01000000)  returns 0x00 (0000ms, 1721ms total)
T13C4 002:792 JLINK_WriteReg(MSP, 0x10000800)  returns 0x00 (0000ms, 1721ms total)
T13C4 002:792 JLINK_WriteReg(PSP, 0x10000800)  returns 0x00 (0000ms, 1721ms total)
T13C4 002:792 JLINK_WriteReg(CFBP, 0x00000000)  returns 0x00 (0000ms, 1721ms total)
T13C4 002:792 JLINK_SetBPEx(Addr = 0x10000000, Type = 0xFFFFFFF2)  returns 0x00000012 (0000ms, 1721ms total)
T13C4 002:792 JLINK_Go() >0x1D0 JTAG> >0x1D0 JTAG> >0x1D0 JTAG> >0x1D0 JTAG> >0x1D0 JTAG> >0x1D0 JTAG> >0x2C8 JTAG> >0x1E8 JTAG> >0x1E8 JTAG> >0x1E8 JTAG> >0x1E8 JTAG> >0x1E8 JTAG> >0x1E8 JTAG> >0x1E8 JTAG> >0x218 JTAG> >0x218 JTAG> (0031ms, 1721ms total)
T13C4 002:823 JLINK_IsHalted() >0x170 JTAG> >0x1598 JTAG>  returns TRUE (0011ms, 1752ms total)
T13C4 002:834 JLINK_ReadReg(R15)  returns 0x10000000 (0000ms, 1752ms total)
T13C4 002:834 JLINK_ClrBPEx(BPHandle = 0x00000012)  returns 0x00 (0000ms, 1752ms total)
T13C4 002:834 JLINK_ReadReg(R0)  returns 0x00000001 (0000ms, 1752ms total)
T13C4 002:834 JLINK_WriteReg(R0, 0x00008000)  returns 0x00 (0000ms, 1752ms total)
T13C4 002:834 JLINK_WriteReg(R1, 0x00001000)  returns 0x00 (0000ms, 1752ms total)
T13C4 002:834 JLINK_WriteReg(R2, 0x000000FF)  returns 0x00 (0000ms, 1752ms total)
T13C4 002:834 JLINK_WriteReg(R3, 0x00000000)  returns 0x00 (0000ms, 1752ms total)
T13C4 002:834 JLINK_WriteReg(R4, 0x00000000)  returns 0x00 (0000ms, 1752ms total)
T13C4 002:834 JLINK_WriteReg(R5, 0x00000000)  returns 0x00 (0000ms, 1752ms total)
T13C4 002:834 JLINK_WriteReg(R6, 0x00000000)  returns 0x00 (0000ms, 1752ms total)
T13C4 002:834 JLINK_WriteReg(R7, 0x00000000)  returns 0x00 (0000ms, 1752ms total)
T13C4 002:834 JLINK_WriteReg(R8, 0x00000000)  returns 0x00 (0001ms, 1752ms total)
T13C4 002:835 JLINK_WriteReg(R9, 0x10000174)  returns 0x00 (0000ms, 1753ms total)
T13C4 002:835 JLINK_WriteReg(R10, 0x00000000)  returns 0x00 (0000ms, 1753ms total)
T13C4 002:835 JLINK_WriteReg(R11, 0x00000000)  returns 0x00 (0000ms, 1753ms total)
